Time [s],Packet ID,Address,Data,Read/Write,ACK/NAK
12.272790812500000,1,2 (0x32),'15' (0x0F),Write,ACK
12.273026937499999,2,2 (0x32),3 (0x33),Read,NAK
12.273249000000000,3,2 (0x32),# (0x23),Write,ACK
12.273453999999999,4,2 (0x32),'136' (0x88),Read,NAK
12.273668687500001,5,2 (0x32),# (0x23),Write,ACK
12.273763499999999,5,2 (0x32),'136' (0x88),Write,ACK
12.273982437500001,6,2 (0x32),' ' (0x20),Write,ACK
12.274187437500000,7,2 (0x32),7 (0x37),Read,NAK
12.274399062500001,8,2 (0x32),' ' (0x20),Write,ACK
12.274493874999999,8,2 (0x32),7 (0x37),Write,ACK
12.274705500000000,9,2 (0x32),# (0x23),Write,ACK
12.274910500000001,10,2 (0x32),'136' (0x88),Read,NAK
12.275122124999999,11,2 (0x32),# (0x23),Write,ACK
12.275216937500000,11,2 (0x32),'136' (0x88),Write,ACK
12.275428562500000,12,2 (0x32),'31' (0x1F),Write,ACK
12.275633500000000,13,2 (0x32),'192' (0xC0),Read,NAK
12.275845125000000,14,2 (0x32),'31' (0x1F),Write,ACK
12.275939937500000,14,2 (0x32),'192' (0xC0),Write,ACK
12.276151562500001,15,2 (0x32),' ' (0x20),Write,ACK
12.276356562500000,16,2 (0x32),7 (0x37),Read,NAK
12.276568187500001,17,2 (0x32),# (0x23),Write,ACK
12.276773187500000,18,2 (0x32),'136' (0x88),Read,NAK
12.276984812500000,19,2 (0x32),' ' (0x20),Write,ACK
12.277079625000001,19,2 (0x32),7 (0x37),Write,ACK
12.277291249999999,20,2 (0x32),# (0x23),Write,ACK
12.277386062500000,20,2 (0x32),'136' (0x88),Write,ACK
12.277877312499999,22,'236' (0xEC),'208' (0xD0),Write,ACK
12.278089749999999,23,'236' (0xEC),` (0x60),Read,NAK
12.278305874999999,24,'236' (0xEC),'224' (0xE0),Write,ACK
12.278400687500000,24,'236' (0xEC),'182' (0xB6),Write,ACK
12.288624250000000,25,'236' (0xEC),'243' (0xF3),Write,ACK
12.288829187499999,26,'236' (0xEC),'0' (0x00),Read,NAK
12.289041750000001,27,'236' (0xEC),'136' (0x88),Write,ACK
12.289246687500000,28,'236' (0xEC),Y (0x59),Read,ACK
12.289342312500001,28,'236' (0xEC),n (0x6E),Read,NAK
12.289553937499999,29,'236' (0xEC),'138' (0x8A),Write,ACK
12.289758937500000,30,'236' (0xEC),k (0x6B),Read,ACK
12.289854249999999,30,'236' (0xEC),f (0x66),Read,NAK
12.290065875000000,31,'236' (0xEC),'140' (0x8C),Write,ACK
12.290270874999999,32,'236' (0xEC),2 (0x32),Read,ACK
12.290366125000000,32,'236' (0xEC),'0' (0x00),Read,NAK
12.290577750000001,33,'236' (0xEC),'142' (0x8E),Write,ACK
12.290782750000000,34,'236' (0xEC),{ (0x7B),Read,ACK
12.290878125000001,34,'236' (0xEC),'141' (0x8D),Read,NAK
12.291089749999999,35,'236' (0xEC),'144' (0x90),Write,ACK
12.291294750000000,36,'236' (0xEC),J (0x4A),Read,ACK
12.291390062500000,36,'236' (0xEC),'214' (0xD6),Read,NAK
12.291601687500000,37,'236' (0xEC),'146' (0x92),Write,ACK
12.291806687499999,38,'236' (0xEC),'208' (0xD0),Read,ACK
12.291902062500000,38,'236' (0xEC),'11' (0x0B),Read,NAK
12.292113687500001,39,'236' (0xEC),'148' (0x94),Write,ACK
12.292318687500000,40,'236' (0xEC),'193' (0xC1),Read,ACK
12.292414000000001,40,'236' (0xEC),'30' (0x1E),Read,NAK
12.292625624999999,41,'236' (0xEC),'150' (0x96),Write,ACK
12.292830625000001,42,'236' (0xEC),$ (0x24),Read,ACK
12.292926000000000,42,'236' (0xEC),'0' (0x00),Read,NAK
12.293137625000000,43,'236' (0xEC),'152' (0x98),Write,ACK
12.293342624999999,44,'236' (0xEC),'249' (0xF9),Read,ACK
12.293437937500000,44,'236' (0xEC),'255' (0xFF),Read,NAK
12.293649562500001,45,'236' (0xEC),'154' (0x9A),Write,ACK
12.293854500000000,46,'236' (0xEC),'180' (0xB4),Read,ACK
12.293949937500001,46,'236' (0xEC),- (0x2D),Read,NAK
12.294161562499999,47,'236' (0xEC),'156' (0x9C),Write,ACK
12.294366500000001,48,'236' (0xEC),'232' (0xE8),Read,ACK
12.294461812500000,48,'236' (0xEC),'209' (0xD1),Read,NAK
12.294673500000000,49,'236' (0xEC),'158' (0x9E),Write,ACK
12.294878437500000,50,'236' (0xEC),'136' (0x88),Read,ACK
12.294973875000000,50,'236' (0xEC),'19' (0x13),Read,NAK
12.295185500000001,51,'236' (0xEC),'161' (0xA1),Write,ACK
12.295390437500000,52,'236' (0xEC),K (0x4B),Read,NAK
12.295602125000000,53,'236' (0xEC),'225' (0xE1),Write,ACK
12.295807062500000,54,'236' (0xEC),x (0x78),Read,ACK
12.295902375000001,54,'236' (0xEC),'1' (0x01),Read,NAK
12.296113999999999,55,'236' (0xEC),'227' (0xE3),Write,ACK
12.296319000000000,56,'236' (0xEC),'0' (0x00),Read,NAK
12.296530625000001,57,'236' (0xEC),'228' (0xE4),Write,ACK
12.296735625000000,58,'236' (0xEC),'17' (0x11),Read,NAK
12.296947250000001,59,'236' (0xEC),'229' (0xE5),Write,ACK
12.297152187500000,60,'236' (0xEC),/ (0x2F),Read,NAK
12.297363812500000,61,'236' (0xEC),'230' (0xE6),Write,ACK
12.297568812500000,62,'236' (0xEC),'3' (0x03),Read,NAK
12.297780437500000,63,'236' (0xEC),'229' (0xE5),Write,ACK
12.297985437500000,64,'236' (0xEC),/ (0x2F),Read,NAK
12.298197062500000,65,'236' (0xEC),'231' (0xE7),Write,ACK
12.298402062499999,66,'236' (0xEC),'30' (0x1E),Read,NAK
12.298619187500000,67,'236' (0xEC),'244' (0xF4),Write,ACK
12.298714000000000,67,'236' (0xEC),'0' (0x00),Write,ACK
12.298930000000000,68,'236' (0xEC),'242' (0xF2),Write,ACK
12.299024812500001,68,'236' (0xEC),'5' (0x05),Write,ACK
12.299242625000000,69,'236' (0xEC),'245' (0xF5),Write,ACK
12.299337437500000,69,'236' (0xEC),'0' (0x00),Write,ACK
12.299554812500000,70,'236' (0xEC),'244' (0xF4),Write,ACK
12.299649625000001,70,'236' (0xEC),'183' (0xB7),Write,ACK
12.471288437500000,71,'236' (0xEC),'250' (0xFA),Write,ACK
12.471517687500000,72,'236' (0xEC),'134' (0x86),Read,ACK
12.471613187499999,72,'236' (0xEC),'156' (0x9C),Read,ACK
12.471708749999999,72,'236' (0xEC),'176' (0xB0),Read,NAK
12.471948875000001,73,'236' (0xEC),'250' (0xFA),Write,ACK
12.472153812500000,74,'236' (0xEC),'134' (0x86),Read,ACK
12.472249187499999,74,'236' (0xEC),'156' (0x9C),Read,ACK
12.472344750000000,74,'236' (0xEC),'176' (0xB0),Read,NAK
12.472556375000000,75,'236' (0xEC),'247' (0xF7),Write,ACK
12.472761374999999,76,'236' (0xEC),n (0x6E),Read,ACK
12.472856937500000,76,'236' (0xEC),'204' (0xCC),Read,ACK
12.472952500000000,76,'236' (0xEC),'176' (0xB0),Read,NAK
12.473260124999999,77,'236' (0xEC),'250' (0xFA),Write,ACK
12.473465062500001,78,'236' (0xEC),'134' (0x86),Read,ACK
12.473560624999999,78,'236' (0xEC),'156' (0x9C),Read,ACK
12.473656187500000,78,'236' (0xEC),'176' (0xB0),Read,NAK
12.473868250000001,79,'236' (0xEC),'247' (0xF7),Write,ACK
12.474073250000000,80,'236' (0xEC),n (0x6E),Read,ACK
12.474168750000000,80,'236' (0xEC),'204' (0xCC),Read,ACK
12.474264312500001,80,'236' (0xEC),'176' (0xB0),Read,NAK
12.474605875000000,81,'236' (0xEC),'250' (0xFA),Write,ACK
12.474810812499999,82,'236' (0xEC),'134' (0x86),Read,ACK
12.474906187500000,82,'236' (0xEC),'156' (0x9C),Read,ACK
12.475001750000001,82,'236' (0xEC),'176' (0xB0),Read,NAK
12.475213374999999,83,'236' (0xEC),'253' (0xFD),Write,ACK
12.475418375000000,84,'236' (0xEC),] (0x5D),Read,ACK
12.475513937500001,84,'236' (0xEC),'18' (0x12),Read,NAK
12.575778562500000,85,2 (0x32),' (0x27),Write,ACK
12.575983500000000,86,2 (0x32),'255' (0xFF),Read,NAK
12.576200562500000,87,2 (0x32),'168' (0xA8),Write,ACK
12.576405562500000,88,2 (0x32),p (0x70),Read,ACK
12.576501062500000,88,2 (0x32),'224' (0xE0),Read,ACK
12.576596625000001,88,2 (0x32),'240' (0xF0),Read,ACK
12.576692124999999,88,2 (0x32),'214' (0xD6),Read,ACK
12.576787687500000,88,2 (0x32),P (0x50),Read,ACK
12.576883250000000,88,2 (0x32),'219' (0xDB),Read,NAK
12.577114812500000,89,2 (0x32),' (0x27),Write,ACK
12.577319749999999,90,2 (0x32),'0' (0x00),Read,NAK
12.578523437499999,91,2 (0x32),' (0x27),Write,ACK
12.578728437500001,92,2 (0x32),'0' (0x00),Read,NAK
12.579933375000000,93,2 (0x32),' (0x27),Write,ACK
12.580138312500001,94,2 (0x32),'0' (0x00),Read,NAK
12.581342250000001,95,2 (0x32),' (0x27),Write,ACK
12.581547250000000,96,2 (0x32),'0' (0x00),Read,NAK
12.582750187500000,97,2 (0x32),' (0x27),Write,ACK
12.582955187500000,98,2 (0x32),'0' (0x00),Read,NAK
12.584158125000000,99,2 (0x32),' (0x27),Write,ACK
12.584363062500000,100,2 (0x32),'0' (0x00),Read,NAK
12.585566000000000,101,2 (0x32),' (0x27),Write,ACK
12.585770999999999,102,2 (0x32),'0' (0x00),Read,NAK
12.586973937500000,103,2 (0x32),' (0x27),Write,ACK
12.587178937499999,104,2 (0x32),'0' (0x00),Read,NAK
12.588381875000000,105,2 (0x32),' (0x27),Write,ACK
12.588586875000001,106,2 (0x32),'0' (0x00),Read,NAK
12.589789812499999,107,2 (0x32),' (0x27),Write,ACK
12.589994750000001,108,2 (0x32),'0' (0x00),Read,NAK
12.591197749999999,109,2 (0x32),' (0x27),Write,ACK
12.591402687500000,110,2 (0x32),'0' (0x00),Read,NAK
12.592605624999999,111,2 (0x32),' (0x27),Write,ACK
12.592810625000000,112,2 (0x32),'0' (0x00),Read,NAK
12.594013562500001,113,2 (0x32),' (0x27),Write,ACK
12.594218562500000,114,2 (0x32),'0' (0x00),Read,NAK
12.595421500000000,115,2 (0x32),' (0x27),Write,ACK
12.595626437500000,116,2 (0x32),'0' (0x00),Read,NAK
12.596829437500000,117,2 (0x32),' (0x27),Write,ACK
12.597034375000000,118,2 (0x32),'0' (0x00),Read,NAK
12.598237312500000,119,2 (0x32),' (0x27),Write,ACK
12.598442312500000,120,2 (0x32),'15' (0x0F),Read,NAK
12.598653937500000,121,2 (0x32),'140' (0x8C),Write,ACK
12.598858937499999,122,2 (0x32),'0' (0x00),Read,ACK
12.598954375000000,122,2 (0x32),'6' (0x06),Read,NAK
22.970899374999998,123,'236' (0xEC),'250' (0xFA),Write,ACK
22.971122937499999,124,'236' (0xEC),'134' (0x86),Read,ACK
22.971218937500002,124,'236' (0xEC),'135' (0x87),Read,ACK
22.971314499999998,124,'236' (0xEC),' ' (0x20),Read,NAK
22.971546499999999,125,'236' (0xEC),'250' (0xFA),Write,ACK
22.971751437500000,126,'236' (0xEC),'134' (0x86),Read,ACK
22.971847062500000,126,'236' (0xEC),'135' (0x87),Read,ACK
22.971942625000001,126,'236' (0xEC),' ' (0x20),Read,NAK
22.972154249999999,127,'236' (0xEC),'247' (0xF7),Write,ACK
22.972359250000000,128,'236' (0xEC),n (0x6E),Read,ACK
22.972454625000001,128,'236' (0xEC),'200' (0xC8),Read,ACK
22.972550187500001,128,'236' (0xEC),'160' (0xA0),Read,NAK
22.972799312500001,129,'236' (0xEC),'250' (0xFA),Write,ACK
22.973004312499999,130,'236' (0xEC),'134' (0x86),Read,ACK
22.973099812499999,130,'236' (0xEC),'135' (0x87),Read,ACK
22.973195375000000,130,'236' (0xEC),' ' (0x20),Read,NAK
22.973407000000002,131,'236' (0xEC),'247' (0xF7),Write,ACK
22.973611937499999,132,'236' (0xEC),n (0x6E),Read,ACK
22.973707500000000,132,'236' (0xEC),'200' (0xC8),Read,ACK
22.973803062500000,132,'236' (0xEC),'160' (0xA0),Read,NAK
22.974094500000000,133,'236' (0xEC),'250' (0xFA),Write,ACK
22.974299500000001,134,'236' (0xEC),'134' (0x86),Read,ACK
22.974394937500001,134,'236' (0xEC),'135' (0x87),Read,ACK
22.974490500000002,134,'236' (0xEC),' ' (0x20),Read,NAK
22.974702125000000,135,'236' (0xEC),'253' (0xFD),Write,ACK
22.974907125000001,136,'236' (0xEC),\ (0x5C),Read,ACK
22.975002562499999,136,'236' (0xEC),'168' (0xA8),Read,NAK
23.075258812500000,137,2 (0x32),' (0x27),Write,ACK
23.075464062500000,138,2 (0x32),'255' (0xFF),Read,NAK
23.075675687499999,139,2 (0x32),'168' (0xA8),Write,ACK
23.075880687500000,140,2 (0x32),'192' (0xC0),Read,ACK
23.075976125000000,140,2 (0x32),'226' (0xE2),Read,ACK
23.076071687500001,140,2 (0x32),'240' (0xF0),Read,ACK
23.076167250000001,140,2 (0x32),'215' (0xD7),Read,ACK
23.076262812500001,140,2 (0x32),'224' (0xE0),Read,ACK
23.076358375000002,140,2 (0x32),'216' (0xD8),Read,NAK
23.076573937500001,141,2 (0x32),' (0x27),Write,ACK
23.076778937499999,142,2 (0x32),'0' (0x00),Read,NAK
23.077983687500002,143,2 (0x32),' (0x27),Write,ACK
23.078188687499999,144,2 (0x32),'0' (0x00),Read,NAK
23.079392687500000,145,2 (0x32),' (0x27),Write,ACK
23.079597625000002,146,2 (0x32),'0' (0x00),Read,NAK
23.080800562499999,147,2 (0x32),' (0x27),Write,ACK
23.081005562500000,148,2 (0x32),'0' (0x00),Read,NAK
23.082208500000000,149,2 (0x32),' (0x27),Write,ACK
23.082413500000001,150,2 (0x32),'0' (0x00),Read,NAK
23.083616437500002,151,2 (0x32),' (0x27),Write,ACK
23.083821437499999,152,2 (0x32),'0' (0x00),Read,NAK
23.085024375000000,153,2 (0x32),' (0x27),Write,ACK
23.085229312500001,154,2 (0x32),'0' (0x00),Read,NAK
23.086432250000001,155,2 (0x32),' (0x27),Write,ACK
23.086637249999999,156,2 (0x32),'0' (0x00),Read,NAK
23.087840187499999,157,2 (0x32),' (0x27),Write,ACK
23.088045187500001,158,2 (0x32),'0' (0x00),Read,NAK
23.089248125000001,159,2 (0x32),' (0x27),Write,ACK
23.089453124999999,160,2 (0x32),'0' (0x00),Read,NAK
23.090656062499999,161,2 (0x32),' (0x27),Write,ACK
23.090861000000000,162,2 (0x32),'0' (0x00),Read,NAK
23.092064000000001,163,2 (0x32),' (0x27),Write,ACK
23.092268937499998,164,2 (0x32),'0' (0x00),Read,NAK
23.093471874999999,165,2 (0x32),' (0x27),Write,ACK
23.093676875000000,166,2 (0x32),'0' (0x00),Read,NAK
23.094879812500000,167,2 (0x32),' (0x27),Write,ACK
23.095084812500001,168,2 (0x32),'0' (0x00),Read,NAK
23.096287749999998,169,2 (0x32),' (0x27),Write,ACK
23.096492687500000,170,2 (0x32),'0' (0x00),Read,NAK
23.097695687500000,171,2 (0x32),' (0x27),Write,ACK
23.097900625000001,172,2 (0x32),'0' (0x00),Read,NAK
23.099103562500002,173,2 (0x32),' (0x27),Write,ACK
23.099308562499999,174,2 (0x32),'0' (0x00),Read,NAK
23.100511500000000,175,2 (0x32),' (0x27),Write,ACK
23.100716500000001,176,2 (0x32),'0' (0x00),Read,NAK
23.101919437500001,177,2 (0x32),' (0x27),Write,ACK
23.102124437499999,178,2 (0x32),'0' (0x00),Read,NAK
23.103327374999999,179,2 (0x32),' (0x27),Write,ACK
23.103532312500001,180,2 (0x32),'0' (0x00),Read,NAK
23.104735250000001,181,2 (0x32),' (0x27),Write,ACK
23.104940249999999,182,2 (0x32),'0' (0x00),Read,NAK
23.106143187499999,183,2 (0x32),' (0x27),Write,ACK
23.106348187500000,184,2 (0x32),'15' (0x0F),Read,NAK
23.106559812499999,185,2 (0x32),'140' (0x8C),Write,ACK
23.106764812500000,186,2 (0x32),'0' (0x00),Read,ACK
23.106860125000001,186,2 (0x32),'6' (0x06),Read,NAK
34.948973250000002,188,2 (0x32),'15' (0x0F),Write,ACK
34.949209312500003,189,2 (0x32),3 (0x33),Read,NAK
34.949431437500003,190,2 (0x32),# (0x23),Write,ACK
34.949636374999997,191,2 (0x32),'136' (0x88),Read,NAK
34.949851062500002,192,2 (0x32),# (0x23),Write,ACK
34.949945874999997,192,2 (0x32),'136' (0x88),Write,ACK
34.950164812499999,193,2 (0x32),' ' (0x20),Write,ACK
34.950369812500000,194,2 (0x32),7 (0x37),Read,NAK
34.950581437499999,195,2 (0x32),' ' (0x20),Write,ACK
34.950676250000001,195,2 (0x32),7 (0x37),Write,ACK
34.950887874999999,196,2 (0x32),# (0x23),Write,ACK
34.951092875000001,197,2 (0x32),'136' (0x88),Read,NAK
34.951304499999999,198,2 (0x32),# (0x23),Write,ACK
34.951399312500001,198,2 (0x32),'136' (0x88),Write,ACK
34.951610937500000,199,2 (0x32),'31' (0x1F),Write,ACK
34.951815937500001,200,2 (0x32),'192' (0xC0),Read,NAK
34.952027562500000,201,2 (0x32),'31' (0x1F),Write,ACK
34.952122375000002,201,2 (0x32),'192' (0xC0),Write,ACK
34.952334000000000,202,2 (0x32),' ' (0x20),Write,ACK
34.952538937500002,203,2 (0x32),7 (0x37),Read,NAK
34.952750625000000,204,2 (0x32),# (0x23),Write,ACK
34.952955562500001,205,2 (0x32),'136' (0x88),Read,NAK
34.953167187500000,206,2 (0x32),' ' (0x20),Write,ACK
34.953262000000002,206,2 (0x32),7 (0x37),Write,ACK
34.953473625000001,207,2 (0x32),# (0x23),Write,ACK
34.953568437500003,207,2 (0x32),'136' (0x88),Write,ACK
34.954063437499997,209,'236' (0xEC),'208' (0xD0),Write,ACK
34.954272187500003,210,'236' (0xEC),` (0x60),Read,NAK
34.954488812500003,211,'236' (0xEC),'224' (0xE0),Write,ACK
34.954583624999998,211,'236' (0xEC),'182' (0xB6),Write,ACK
34.964808687500003,212,'236' (0xEC),'243' (0xF3),Write,ACK
34.965013687499997,213,'236' (0xEC),'0' (0x00),Read,NAK
34.965225937500001,214,'236' (0xEC),'136' (0x88),Write,ACK
34.965430937500003,215,'236' (0xEC),Y (0x59),Read,ACK
34.965526562500003,215,'236' (0xEC),n (0x6E),Read,NAK
34.965738187500001,216,'236' (0xEC),'138' (0x8A),Write,ACK
34.965943125000003,217,'236' (0xEC),k (0x6B),Read,ACK
34.966038437500004,217,'236' (0xEC),f (0x66),Read,NAK
34.966250062500002,218,'236' (0xEC),'140' (0x8C),Write,ACK
34.966455062500003,219,'236' (0xEC),2 (0x32),Read,ACK
34.966550374999997,219,'236' (0xEC),'0' (0x00),Read,NAK
34.966762000000003,220,'236' (0xEC),'142' (0x8E),Write,ACK
34.966966999999997,221,'236' (0xEC),{ (0x7B),Read,ACK
34.967062374999998,221,'236' (0xEC),'141' (0x8D),Read,NAK
34.967274000000003,222,'236' (0xEC),'144' (0x90),Write,ACK
34.967478999999997,223,'236' (0xEC),J (0x4A),Read,ACK
34.967574312499998,223,'236' (0xEC),'214' (0xD6),Read,NAK
34.967785937499997,224,'236' (0xEC),'146' (0x92),Write,ACK
34.967990874999998,225,'236' (0xEC),'208' (0xD0),Read,ACK
34.968086312499999,225,'236' (0xEC),'11' (0x0B),Read,NAK
34.968297937499997,226,'236' (0xEC),'148' (0x94),Write,ACK
34.968502874999999,227,'236' (0xEC),'193' (0xC1),Read,ACK
34.968598187500000,227,'236' (0xEC),'30' (0x1E),Read,NAK
34.968809812499998,228,'236' (0xEC),'150' (0x96),Write,ACK
34.969014812499999,229,'236' (0xEC),$ (0x24),Read,ACK
34.969110250000000,229,'236' (0xEC),'0' (0x00),Read,NAK
34.969321874999999,230,'236' (0xEC),'152' (0x98),Write,ACK
34.969526812500000,231,'236' (0xEC),'249' (0xF9),Read,ACK
34.969622125000001,231,'236' (0xEC),'255' (0xFF),Read,NAK
34.969833749999999,232,'236' (0xEC),'154' (0x9A),Write,ACK
34.970038750000001,233,'236' (0xEC),'180' (0xB4),Read,ACK
34.970134125000001,233,'236' (0xEC),- (0x2D),Read,NAK
34.970345750000000,234,'236' (0xEC),'156' (0x9C),Write,ACK
34.970550750000001,235,'236' (0xEC),'232' (0xE8),Read,ACK
34.970646062500002,235,'236' (0xEC),'209' (0xD1),Read,NAK
34.970857687500001,236,'236' (0xEC),'158' (0x9E),Write,ACK
34.971062687500002,237,'236' (0xEC),'136' (0x88),Read,ACK
34.971158062500002,237,'236' (0xEC),'19' (0x13),Read,NAK
34.971369687500001,238,'236' (0xEC),'161' (0xA1),Write,ACK
34.971574687500002,239,'236' (0xEC),K (0x4B),Read,NAK
34.971786312500001,240,'236' (0xEC),'225' (0xE1),Write,ACK
34.971991312500002,241,'236' (0xEC),x (0x78),Read,ACK
34.972086625000003,241,'236' (0xEC),'1' (0x01),Read,NAK
34.972298250000001,242,'236' (0xEC),'227' (0xE3),Write,ACK
34.972503187500003,243,'236' (0xEC),'0' (0x00),Read,NAK
34.972714812500001,244,'236' (0xEC),'228' (0xE4),Write,ACK
34.972919812500002,245,'236' (0xEC),'17' (0x11),Read,NAK
34.973131437500001,246,'236' (0xEC),'229' (0xE5),Write,ACK
34.973336437500002,247,'236' (0xEC),/ (0x2F),Read,NAK
34.973548062500001,248,'236' (0xEC),'230' (0xE6),Write,ACK
34.973753062500002,249,'236' (0xEC),'3' (0x03),Read,NAK
34.973964687500001,250,'236' (0xEC),'229' (0xE5),Write,ACK
34.974169625000002,251,'236' (0xEC),/ (0x2F),Read,NAK
34.974381250000000,252,'236' (0xEC),'231' (0xE7),Write,ACK
34.974586250000002,253,'236' (0xEC),'30' (0x1E),Read,NAK
34.974803375000000,254,'236' (0xEC),'244' (0xF4),Write,ACK
34.974898187500003,254,'236' (0xEC),'0' (0x00),Write,ACK
34.975114187499997,255,'236' (0xEC),'242' (0xF2),Write,ACK
34.975209000000000,255,'236' (0xEC),'5' (0x05),Write,ACK
34.975426812499997,256,'236' (0xEC),'245' (0xF5),Write,ACK
34.975521624999999,256,'236' (0xEC),'0' (0x00),Write,ACK
34.975738999999997,257,'236' (0xEC),'244' (0xF4),Write,ACK
34.975833812499999,257,'236' (0xEC),'183' (0xB7),Write,ACK
39.443475124999999,258,'236' (0xEC),'250' (0xFA),Write,ACK
39.443710375000002,259,'236' (0xEC),'134' (0x86),Read,ACK
39.443806125000002,259,'236' (0xEC),'153' (0x99),Read,ACK
39.443901687500002,259,'236' (0xEC),0 (0x30),Read,NAK
39.444141437500001,260,'236' (0xEC),'250' (0xFA),Write,ACK
39.444346375000002,261,'236' (0xEC),'134' (0x86),Read,ACK
39.444441812500003,261,'236' (0xEC),'153' (0x99),Read,ACK
39.444537375000003,261,'236' (0xEC),0 (0x30),Read,NAK
39.444749000000002,262,'236' (0xEC),'247' (0xF7),Write,ACK
39.444954000000003,263,'236' (0xEC),n (0x6E),Read,ACK
39.445049500000003,263,'236' (0xEC),'204' (0xCC),Read,ACK
39.445145125000003,263,'236' (0xEC),'240' (0xF0),Read,NAK
39.445454562499997,264,'236' (0xEC),'250' (0xFA),Write,ACK
39.445659499999998,265,'236' (0xEC),'134' (0x86),Read,ACK
39.445755312499998,265,'236' (0xEC),'153' (0x99),Read,ACK
39.445850874999998,265,'236' (0xEC),0 (0x30),Read,NAK
39.446065249999997,266,'236' (0xEC),'247' (0xF7),Write,ACK
39.446270249999998,267,'236' (0xEC),n (0x6E),Read,ACK
39.446365687499998,267,'236' (0xEC),'204' (0xCC),Read,ACK
39.446461312499999,267,'236' (0xEC),'240' (0xF0),Read,NAK
39.446800875000001,268,'236' (0xEC),'250' (0xFA),Write,ACK
39.447005875000002,269,'236' (0xEC),'134' (0x86),Read,ACK
39.447101312500003,269,'236' (0xEC),'153' (0x99),Read,ACK
39.447196875000003,269,'236' (0xEC),0 (0x30),Read,NAK
39.447408500000002,270,'236' (0xEC),'253' (0xFD),Write,ACK
39.447613500000003,271,'236' (0xEC),[ (0x5B),Read,ACK
39.447709000000003,271,'236' (0xEC),'202' (0xCA),Read,NAK
39.547964937499998,272,2 (0x32),' (0x27),Write,ACK
39.548169937499999,273,2 (0x32),'255' (0xFF),Read,NAK
39.548386250000000,274,2 (0x32),'168' (0xA8),Write,ACK
39.548591250000001,275,2 (0x32),'208' (0xD0),Read,ACK
39.548686625000002,275,2 (0x32),'225' (0xE1),Read,ACK
39.548782125000002,275,2 (0x32),'176' (0xB0),Read,ACK
39.548877687500003,275,2 (0x32),'216' (0xD8),Read,ACK
39.548973250000003,275,2 (0x32),'176' (0xB0),Read,ACK
39.549068812500003,275,2 (0x32),'216' (0xD8),Read,NAK
39.549300750000000,276,2 (0x32),' (0x27),Write,ACK
39.549505750000002,277,2 (0x32),'0' (0x00),Read,NAK
39.550716250000001,278,2 (0x32),' (0x27),Write,ACK
39.550921250000002,279,2 (0x32),'0' (0x00),Read,NAK
39.552127812499997,280,2 (0x32),' (0x27),Write,ACK
39.552332749999998,281,2 (0x32),'15' (0x0F),Read,NAK
39.552544374999997,282,2 (0x32),'140' (0x8C),Write,ACK
39.552749374999998,283,2 (0x32),'192' (0xC0),Read,ACK
39.552844874999998,283,2 (0x32),'5' (0x05),Read,NAK
49.943898562500003,284,'236' (0xEC),'250' (0xFA),Write,ACK
49.944122062500000,285,'236' (0xEC),'134' (0x86),Read,ACK
49.944217625000000,285,'236' (0xEC),'154' (0x9A),Read,ACK
49.944313187500001,285,'236' (0xEC),'240' (0xF0),Read,NAK
49.944546937500000,286,'236' (0xEC),'250' (0xFA),Write,ACK
49.944751875000001,287,'236' (0xEC),'134' (0x86),Read,ACK
49.944847187500002,287,'236' (0xEC),'154' (0x9A),Read,ACK
49.944942750000003,287,'236' (0xEC),'240' (0xF0),Read,NAK
49.945154375000001,288,'236' (0xEC),'247' (0xF7),Write,ACK
49.945359375000002,289,'236' (0xEC),n (0x6E),Read,ACK
49.945454812500003,289,'236' (0xEC),'205' (0xCD),Read,ACK
49.945550375000003,289,'236' (0xEC),@ (0x40),Read,NAK
49.945799375000000,290,'236' (0xEC),'250' (0xFA),Write,ACK
49.946004375000001,291,'236' (0xEC),'134' (0x86),Read,ACK
49.946099750000002,291,'236' (0xEC),'154' (0x9A),Read,ACK
49.946195312500002,291,'236' (0xEC),'240' (0xF0),Read,NAK
49.946406937500001,292,'236' (0xEC),'247' (0xF7),Write,ACK
49.946611875000002,293,'236' (0xEC),n (0x6E),Read,ACK
49.946707312500003,293,'236' (0xEC),'205' (0xCD),Read,ACK
49.946802875000003,293,'236' (0xEC),@ (0x40),Read,NAK
49.947097187499999,294,'236' (0xEC),'250' (0xFA),Write,ACK
49.947302187500000,295,'236' (0xEC),'134' (0x86),Read,ACK
49.947397750000000,295,'236' (0xEC),'154' (0x9A),Read,ACK
49.947493312500001,295,'236' (0xEC),'240' (0xF0),Read,NAK
49.947708687499997,296,'236' (0xEC),'253' (0xFD),Write,ACK
49.947913687499998,297,'236' (0xEC),[ (0x5B),Read,ACK
49.948008999999999,297,'236' (0xEC),i (0x69),Read,NAK
50.048254937499998,298,2 (0x32),' (0x27),Write,ACK
50.048459937499999,299,2 (0x32),'255' (0xFF),Read,NAK
50.048672250000003,300,2 (0x32),'168' (0xA8),Write,ACK
50.048877249999997,301,2 (0x32),' ' (0x20),Read,ACK
50.048972624999998,301,2 (0x32),'220' (0xDC),Read,ACK
50.049068187499998,301,2 (0x32),'128' (0x80),Read,ACK
50.049163687499998,301,2 (0x32),'217' (0xD9),Read,ACK
50.049259249999999,301,2 (0x32),` (0x60),Read,ACK
50.049354812499999,301,2 (0x32),'220' (0xDC),Read,NAK
50.049568562499999,302,2 (0x32),' (0x27),Write,ACK
50.049773562500000,303,2 (0x32),'0' (0x00),Read,NAK
50.050978562499999,304,2 (0x32),' (0x27),Write,ACK
50.051183500000000,305,2 (0x32),'0' (0x00),Read,NAK
50.052387000000003,306,2 (0x32),' (0x27),Write,ACK
50.052591999999997,307,2 (0x32),'0' (0x00),Read,NAK
50.053794937500001,308,2 (0x32),' (0x27),Write,ACK
50.053999875000002,309,2 (0x32),'0' (0x00),Read,NAK
50.055202812499999,310,2 (0x32),' (0x27),Write,ACK
50.055407812500000,311,2 (0x32),'0' (0x00),Read,NAK
50.056610749999997,312,2 (0x32),' (0x27),Write,ACK
50.056815749999998,313,2 (0x32),'0' (0x00),Read,NAK
50.058018687500002,314,2 (0x32),' (0x27),Write,ACK
50.058223687500004,315,2 (0x32),'0' (0x00),Read,NAK
50.059426625000000,316,2 (0x32),' (0x27),Write,ACK
50.059631562500002,317,2 (0x32),'15' (0x0F),Read,NAK
50.059843250000000,318,2 (0x32),'140' (0x8C),Write,ACK
50.060048187500001,319,2 (0x32),'0' (0x00),Read,ACK
50.060143687500002,319,2 (0x32),'6' (0x06),Read,NAK
